
**** 03/09/18 10:09:02 *********** Evaluation PSpice (Nov 1999) **************

 D przeczanie diody sygnaem sin


 ****     CIRCUIT DESCRIPTION


******************************************************************************



.WIDTH IN=80 OUT=80

*definicja ukadu - rdo sygnau sinusoidalnego f=10kHz, amplituda 10V od zera
V1 1 0 SIN(0 10 10K 0 0)
D1 2 0 dELIU
R1 1 2 1K

*model diody
.MODEL dELIU D IS=3.5E-14 TT=47N CJO=3P BV=10 M=0.33 VJ=0.8 IBV=1.0E-5 RS=1

*definicja zmian czasu "u" oznacza mikro - analiza w dziedzine czasu
.TRAN 1us 200us

*uzyskane w dziedzinie czasu wyniki mona poddac analizie widmowej - wyniki zobaczyc w zbiorze *.OUT
.FOUR 10K V(2)

.OP
.OPTIONS NOPAGE
.PROBE
.END



 ****     Diode MODEL PARAMETERS




               dELIU           
          IS   35.000000E-15 
          BV   10            
         IBV   10.000000E-06 
          RS    1            
          TT   47.000000E-09 
         CJO    3.000000E-12 
          VJ     .8          
           M     .33         




 ****     SMALL SIGNAL BIAS SOLUTION       TEMPERATURE =   27.000 DEG C



 NODE   VOLTAGE     NODE   VOLTAGE     NODE   VOLTAGE     NODE   VOLTAGE


(    1)    0.0000  (    2) 2.699E-27  




    VOLTAGE SOURCE CURRENTS
    NAME         CURRENT

    V1           2.699E-30

    TOTAL POWER DISSIPATION   0.00E+00  WATTS




 ****     OPERATING POINT INFORMATION      TEMPERATURE =   27.000 DEG C






**** DIODES


NAME         D1        
MODEL        dELIU     
ID           0.00E+00 
VD           2.70E-27 
REQ          4.25E+11 
CAP          3.00E-12 


 ****     INITIAL TRANSIENT SOLUTION       TEMPERATURE =   27.000 DEG C



 NODE   VOLTAGE     NODE   VOLTAGE     NODE   VOLTAGE     NODE   VOLTAGE


(    1)    0.0000  (    2) 2.699E-27  




    VOLTAGE SOURCE CURRENTS
    NAME         CURRENT

    V1           2.699E-30

    TOTAL POWER DISSIPATION   0.00E+00  WATTS




 ****     FOURIER ANALYSIS                 TEMPERATURE =   27.000 DEG C



FOURIER COMPONENTS OF TRANSIENT RESPONSE V(2)



 DC COMPONENT =  -2.843856E+00

 HARMONIC   FREQUENCY    FOURIER    NORMALIZED    PHASE        NORMALIZED
    NO         (HZ)     COMPONENT    COMPONENT    (DEG)       PHASE (DEG)

     1     1.000E+04    5.404E+00    1.000E+00    9.923E-02    0.000E+00
     2     2.000E+04    2.072E+00    3.835E-01    8.999E+01    8.979E+01
     3     3.000E+04    1.332E-01    2.465E-02    3.961E+00    3.663E+00
     4     4.000E+04    3.941E-01    7.292E-02    8.989E+01    8.950E+01
     5     5.000E+04    7.642E-02    1.414E-02    6.440E+00    5.944E+00
     6     6.000E+04    1.566E-01    2.898E-02    8.958E+01    8.898E+01
     7     7.000E+04    5.223E-02    9.665E-03    8.391E+00    7.697E+00
     8     8.000E+04    7.887E-02    1.459E-02    8.863E+01    8.784E+01
     9     9.000E+04    3.831E-02    7.089E-03    1.035E+01    9.456E+00


     TOTAL HARMONIC DISTORTION =   3.928986E+01 PERCENT


          JOB CONCLUDED

          TOTAL JOB TIME            0.00
