
**** 03/09/18 10:14:08 *********** Evaluation PSpice (Nov 1999) **************

 D przeczanie diody sygnaem sin


 ****     CIRCUIT DESCRIPTION


******************************************************************************



.WIDTH IN=80 OUT=80

*definicja ukadu - rdo sygnau sinusoidalnego f=10kHz, amplituda 10V od zera
V1 1 0 SIN(0 10 10K 0 0)
D1 2 0 dELIU
R1 1 2 1K

*model diody
.MODEL dELIU D IS=3.5E-14 TT=17N CJO=3P BV=10 M=0.33 VJ=0.8 IBV=1.0E-5 RS=1

*definicja zmian czasu "u" oznacza mikro - analiza w dziedzine czasu
.TRAN 1us 200us

*uzyskane w dziedzinie czasu wyniki mona poddac analizie widmowej - wyniki zobaczyc w zbiorze *.OUT
.FOUR 10K V(2)

.OP
.OPTIONS NOPAGE
.PROBE
.END



 ****     Diode MODEL PARAMETERS




               dELIU           
          IS   35.000000E-15 
          BV   10            
         IBV   10.000000E-06 
          RS    1            
          TT   17.000000E-09 
         CJO    3.000000E-12 
          VJ     .8          
           M     .33         




 ****     SMALL SIGNAL BIAS SOLUTION       TEMPERATURE =   27.000 DEG C



 NODE   VOLTAGE     NODE   VOLTAGE     NODE   VOLTAGE     NODE   VOLTAGE


(    1)    0.0000  (    2) 2.699E-27  




    VOLTAGE SOURCE CURRENTS
    NAME         CURRENT

    V1           2.699E-30

    TOTAL POWER DISSIPATION   0.00E+00  WATTS




 ****     OPERATING POINT INFORMATION      TEMPERATURE =   27.000 DEG C






**** DIODES


NAME         D1        
MODEL        dELIU     
ID           0.00E+00 
VD           2.70E-27 
REQ          4.25E+11 
CAP          3.00E-12 


 ****     INITIAL TRANSIENT SOLUTION       TEMPERATURE =   27.000 DEG C



 NODE   VOLTAGE     NODE   VOLTAGE     NODE   VOLTAGE     NODE   VOLTAGE


(    1)    0.0000  (    2) 2.699E-27  




    VOLTAGE SOURCE CURRENTS
    NAME         CURRENT

    V1           2.699E-30

    TOTAL POWER DISSIPATION   0.00E+00  WATTS




 ****     FOURIER ANALYSIS                 TEMPERATURE =   27.000 DEG C



FOURIER COMPONENTS OF TRANSIENT RESPONSE V(2)



 DC COMPONENT =  -2.852660E+00

 HARMONIC   FREQUENCY    FOURIER    NORMALIZED    PHASE        NORMALIZED
    NO         (HZ)     COMPONENT    COMPONENT    (DEG)       PHASE (DEG)

     1     1.000E+04    5.402E+00    1.000E+00    2.932E-03    0.000E+00
     2     2.000E+04    2.055E+00    3.804E-01    9.008E+01    9.008E+01
     3     3.000E+04    1.279E-01    2.368E-02    2.107E-01    2.019E-01
     4     4.000E+04    3.793E-01    7.022E-02    9.079E+01    9.077E+01
     5     5.000E+04    6.666E-02    1.234E-02    7.981E-01    7.835E-01
     6     6.000E+04    1.441E-01    2.668E-02    9.257E+01    9.255E+01
     7     7.000E+04    3.964E-02    7.337E-03    2.735E+00    2.714E+00
     8     8.000E+04    6.977E-02    1.291E-02    9.522E+01    9.519E+01
     9     9.000E+04    2.316E-02    4.287E-03    1.033E+01    1.031E+01


     TOTAL HARMONIC DISTORTION =   3.889414E+01 PERCENT


          JOB CONCLUDED

          TOTAL JOB TIME            0.00
